
T1A80 000:055 SEGGER J-Link V4.58a Log File (0001ms, 0056ms total)
T1A80 000:055 DLL Compiled: Dec  5 2012 18:38:08 (0001ms, 0056ms total)
T1A80 000:055 Logging started @ 2015-05-17 14:58 (0001ms, 0056ms total)
T1A80 000:056 JLINK_SetWarnOutHandler(...) (0000ms, 0056ms total)
T1A80 000:056 JLINK_OpenEx(...)
Firmware: J-Link ARM V8 compiled Jan 31 2018 18:34:52
Hardware: V8.00
S/N: 20080643
Feature(s): RDI,FlashDL,FlashBP,JFlash,GDBFull  returns O.K. (0015ms, 0071ms total)
T1A80 000:071 JLINK_SetErrorOutHandler(...) (0000ms, 0071ms total)
T1A80 000:071 JLINK_ExecCommand("ProjectFile = "G:\stm32资料\02-野火ISO 程序\2-野火ISO-项目提高篇\32、mpu6050教程\野火ISO-V2例程\STM32-DMP移植\USER\JLinkSettings.ini"", ...)  returns 0x00 (0016ms, 0087ms total)
T1A80 000:092 JLINK_ExecCommand("Device = STM32F103RB", ...)
                JLINK_ExecCommand("map ram 0x20000000 - 0x20004FFF", ...)  returns 0x00 (0000ms, 0000ms total)
                JLINK_AddMirrorAreaEx(Addr = 0x00000000, Size = 0x00000000) (0000ms, 0000ms total)
              Device "STM32F103RB" selected (128 KB flash, 20 KB RAM).  returns 0x00 (0007ms, 0094ms total)
T1A80 000:099 JLINK_ExecCommand("DisableConnectionTimeout", ...)  returns 0x00 (0000ms, 0094ms total)
T1A80 000:099 JLINK_GetHardwareVersion()  returns 0x13880 (0000ms, 0094ms total)
T1A80 000:099 JLINK_GetDLLVersion()  returns 45801 (0000ms, 0094ms total)
T1A80 000:099 JLINK_GetFirmwareString(...) (0000ms, 0094ms total)
T1A80 000:108 JLINK_GetDLLVersion()  returns 45801 (0000ms, 0094ms total)
T1A80 000:108 JLINK_GetCompileDateTime() (0000ms, 0094ms total)
T1A80 000:110 JLINK_GetFirmwareString(...) (0000ms, 0094ms total)
T1A80 000:112 JLINK_GetHardwareVersion()  returns 0x13880 (0000ms, 0094ms total)
T1A80 000:120 JLINK_TIF_Select(JLINKARM_TIF_JTAG)  returns 0x00 (0001ms, 0095ms total)
T1A80 000:121 JLINK_SetSpeed(2000) (0000ms, 0095ms total)
T1A80 000:121 JLINK_GetIdData(...) >0x2F8 JTAG>TotalIRLen = 9, IRPrint = 0x0011 >0x30 JTAG> >0x210 JTAG> >0x40 JTAG> >0x40 JTAG> >0x40 JTAG> >0x30 JTAG> >0x40 JTAG> >0x40 JTAG> >0x40 JTAG> >0x40 JTAG> >0x40 JTAG> >0x40 JTAG> >0x40 JTAG> >0x40 JTAG> >0x40 JTAG> >0x40 JTAG> >0x2F8 JTAG>TotalIRLen = 9, IRPrint = 0x0011 >0x30 JTAG> >0x210 JTAG> >0x80 JTAG> >0x40 JTAG> >0x40 JTAG> >0x50 JTAG> >0x40 JTAG> >0x40 JTAG> >0x40 JTAG> >0x50 JTAG> >0x40 JTAG> >0x40 JTAG> >0x40 JTAG> >0x30 JTAG> >0x40 JTAG>
 >0x50 JTAG> >0x40 JTAG> >0x38 JTAG> >0x80 JTAG> >0x40 JTAG> >0x40 JTAG> >0x50 JTAG> >0x40 JTAG> >0x40 JTAG> >0x40 JTAG> >0x50 JTAG> >0x40 JTAG> >0x40 JTAG> >0x30 JTAG> >0x40 JTAG> >0x40 JTAG> >0x40 JTAG> >0x40 JTAG> >0x40 JTAG> >0x50 JTAG> >0x40 JTAG> >0x80 JTAG> >0x40 JTAG> >0x30 JTAG> >0x40 JTAG> >0x40 JTAG> >0x40 JTAG> >0x40 JTAG> >0x40 JTAG> >0x50 JTAG> >0x40 JTAG> >0x80 JTAG> >0x40 JTAG> >0x30 JTAG> >0x40 JTAG> >0x50 JTAG> >0x40 JTAG> >0x40 JTAG> >0x40 JTAG> >0x30 JTAG> >0x40 JTAG> >0x50 JTAG>
 >0x40 JTAG>Found Cortex-M3 r1p1, Little endian. >0x50 JTAG> >0x50 JTAG> >0x40 JTAG> >0x40 JTAG> >0x30 JTAG> >0x30 JTAG> >0x50 JTAG> >0x40 JTAG> >0x80 JTAG> >0x40 JTAG> >0x30 JTAG> >0x40 JTAG> >0x50 JTAG> >0x40 JTAG> >0x40 JTAG> >0x40 JTAG> >0x30 JTAG> >0x30 JTAG> >0x50 JTAG> >0x40 JTAG> >0x80 JTAG> >0x40 JTAG> >0x30 JTAG> >0x40 JTAG> >0x50 JTAG> >0x40 JTAG>TPIU fitted. >0x40 JTAG> >0x40 JTAG> >0x30 JTAG> >0x40 JTAG> >0x50 JTAG> >0x40 JTAG>ETM fitted. >0x40 JTAG> >0x40 JTAG> >0x30 JTAG> >0x40 JTAG>
 >0x50 JTAG> >0x40 JTAG> >0x40 JTAG> >0x40 JTAG> >0x30 JTAG> >0x40 JTAG> >0x50 JTAG> >0x40 JTAG>FPUnit: 6 code (BP) slots and 2 literal slots >0x40 JTAG> >0x40 JTAG> >0x30 JTAG> >0x40 JTAG> >0x50 JTAG> >0x40 JTAG> >0x40 JTAG> >0x40 JTAG> >0x30 JTAG> >0x30 JTAG> >0x50 JTAG> >0x40 JTAG> >0x80 JTAG> >0x40 JTAG> >0x30 JTAG> >0x40 JTAG> >0x50 JTAG> >0x40 JTAG> >0x40 JTAG> >0x40 JTAG> >0x30 JTAG> >0x30 JTAG> >0x50 JTAG> >0x40 JTAG> ScanLen=9 NumDevices=2 aId[0]=0x3BA00477 aIrRead[0]=0 aScanLen[0]=0
 aScanRead[0]=0 (0101ms, 0196ms total)
T1A80 000:222 JLINK_JTAG_GetDeviceID(DeviceIndex = 0)  returns 0x3BA00477 (0000ms, 0196ms total)
T1A80 000:222 JLINK_JTAG_GetDeviceInfo(DeviceIndex = 0)  returns 0x00 (0000ms, 0196ms total)
T1A80 000:222 JLINK_JTAG_GetDeviceID(DeviceIndex = 1)  returns 0x6414041 (0000ms, 0196ms total)
T1A80 000:222 JLINK_JTAG_GetDeviceInfo(DeviceIndex = 1)  returns 0x00 (0000ms, 0196ms total)
T1A80 000:222 JLINK_GetDeviceFamily()  returns 3 (0000ms, 0196ms total)
T1A80 000:224 JLINK_ReadMem (0xE00FFFF0, 0x0010 Bytes, ...) -- CPU is running -- CPU_ReadMem(16 bytes @ 0xE00FFFF0) -- Data:  0D 00 00 00 10 00 00 00 05 00 00 00 B1 00 00 00  returns 0x00 (0004ms, 0200ms total)
T1A80 000:228 JLINK_ReadMem (0xE00FFFD0, 0x0020 Bytes, ...) -- CPU is running -- CPU_ReadMem(32 bytes @ 0xE00FFFD0) -- Data:  00 00 00 00 00 00 00 00 00 00 00 00 00 00 00 00 ...  returns 0x00 (0002ms, 0202ms total)
T1A80 000:230 JLINK_ReadMem (0xE00FF000, 0x0018 Bytes, ...) -- CPU is running -- CPU_ReadMem(24 bytes @ 0xE00FF000) -- Data:  03 F0 F0 FF 03 20 F0 FF 03 30 F0 FF 03 10 F0 FF ...  returns 0x00 (0001ms, 0203ms total)
T1A80 000:231 JLINK_ReadMemU32(0xE000ED00, 0x0001 Items, ...) -- CPU is running -- CPU_ReadMem(4 bytes @ 0xE000ED00) -- Data:  31 C2 1F 41  returns 0x01 (0001ms, 0204ms total)
T1A80 000:232 JLINK_SetResetType(JLINKARM_RESET_TYPE_NORMAL)  returns JLINKARM_RESET_TYPE_NORMAL (0000ms, 0204ms total)
T1A80 000:232 JLINK_Reset() >0x88 JTAG> >0x80 JTAG> >0x40 JTAG> >0x40 JTAG> >0x50 JTAG> >0x40 JTAG> >0x40 JTAG> >0x40 JTAG> >0x50 JTAG> >0x40 JTAG> >0x40 JTAG> >0x30 JTAG> >0x40 JTAG> >0x40 JTAG> >0x40 JTAG> >0x40 JTAG> >0x40 JTAG> >0x50 JTAG> >0x40 JTAG> >0x80 JTAG> >0x40 JTAG> >0x30 JTAG> >0x40 JTAG> >0x40 JTAG> >0x40 JTAG> >0x40 JTAG> >0x40 JTAG> >0x50 JTAG> >0x40 JTAG> >0x80 JTAG> >0x40 JTAG> >0x30 JTAG> >0x40 JTAG> >0x50 JTAG> >0x40 JTAG> >0x40 JTAG> >0x40 JTAG> >0x30 JTAG> >0x40 JTAG> >0x50 JTAG>
 >0x40 JTAG>Found Cortex-M3 r1p1, Little endian. >0x50 JTAG> >0x50 JTAG> >0x40 JTAG> >0x40 JTAG> >0x30 JTAG> >0x30 JTAG> >0x50 JTAG> >0x40 JTAG> >0x80 JTAG> >0x40 JTAG> >0x30 JTAG> >0x40 JTAG> >0x50 JTAG> >0x40 JTAG> >0x40 JTAG> >0x40 JTAG> >0x30 JTAG> >0x40 JTAG> >0x50 JTAG> >0x40 JTAG>TPIU fitted. >0x40 JTAG> >0x40 JTAG> >0x30 JTAG> >0x40 JTAG> >0x50 JTAG> >0x40 JTAG>ETM fitted. >0x40 JTAG> >0x40 JTAG> >0x30 JTAG> >0x40 JTAG> >0x50 JTAG> >0x40 JTAG> >0x40 JTAG> >0x40 JTAG> >0x30 JTAG> >0x40 JTAG>
 >0x50 JTAG> >0x40 JTAG>FPUnit: 6 code (BP) slots and 2 literal slots >0x40 JTAG> >0x40 JTAG> >0x30 JTAG> >0x40 JTAG> >0x50 JTAG> >0x40 JTAG> >0x40 JTAG> >0x40 JTAG> >0x30 JTAG> >0x40 JTAG> >0x50 JTAG> >0x40 JTAG> >0x40 JTAG> >0x40 JTAG> >0x30 JTAG> >0x30 JTAG> >0x50 JTAG> >0x40 JTAG> -- CPU is running -- CPU_WriteMem(4 bytes @ 0xE000EDF0) -- CPU is running -- CPU_WriteMem(4 bytes @ 0xE000EDFC) -- CPU is running -- CPU_WriteMem(4 bytes @ 0xE000ED0C) -- CPU is running -- CPU_ReadMem(4 bytes @ 0xE000EDF0)
 -- CPU is running -- CPU_ReadMem(4 bytes @ 0xE000EDF0) -- CPU is running -- CPU_WriteMem(4 bytes @ 0xE000EDF0) -- CPU is running -- CPU_WriteMem(4 bytes @ 0xE000EDFC) -- CPU is running -- CPU_ReadMem(4 bytes @ 0xE000EDF0) >0xD0 JTAG> >0x40 JTAG> >0x30 JTAG> >0x40 JTAG> >0x50 JTAG> >0x40 JTAG> -- CPU_WriteMem(4 bytes @ 0xE000EDFC) -- CPU_WriteMem(4 bytes @ 0xE0001028) -- CPU_WriteMem(4 bytes @ 0xE0001038) -- CPU_WriteMem(4 bytes @ 0xE0001048) -- CPU_WriteMem(4 bytes @ 0xE0001058)
 -- CPU_WriteMem(4 bytes @ 0xE0002000) (0096ms, 0300ms total)
T1A80 000:328 JLINK_Halt()  returns 0x00 (0000ms, 0300ms total)
T1A80 000:328 JLINK_IsHalted()  returns TRUE (0000ms, 0300ms total)
T1A80 000:328 JLINK_ReadMemU32(0xE000EDF0, 0x0001 Items, ...) -- CPU_ReadMem(4 bytes @ 0xE000EDF0) -- Data:  03 00 03 00  returns 0x01 (0001ms, 0301ms total)
T1A80 000:329 JLINK_WriteU32(0xE000EDF0, 0xA05F0003) -- CPU_WriteMem(4 bytes @ 0xE000EDF0)  returns 0x00 (0001ms, 0302ms total)
T1A80 000:330 JLINK_WriteU32(0xE000EDFC, 0x01000000) -- CPU_WriteMem(4 bytes @ 0xE000EDFC)  returns 0x00 (0001ms, 0303ms total)
T1A80 000:338 JLINK_GetHWStatus(...)  returns 0x00 (0001ms, 0304ms total)
T1A80 000:348 JLINK_GetNumBPUnits(Type = 0xFFFFFF00)  returns 0x06 (0000ms, 0304ms total)
T1A80 000:348 JLINK_GetNumBPUnits(Type = 0xF0)  returns 0x2000 (0000ms, 0304ms total)
T1A80 000:348 JLINK_GetNumWPUnits()  returns 0x04 (0000ms, 0304ms total)
T1A80 000:353 JLINK_GetSpeed()  returns 0x7D0 (0000ms, 0304ms total)
T1A80 000:359 JLINK_ReadMemU32(0xE000E004, 0x0001 Items, ...) -- CPU_ReadMem(4 bytes @ 0xE000E004) -- Data:  01 00 00 00  returns 0x01 (0001ms, 0305ms total)
T1A80 000:360 JLINK_ReadMemU32(0xE000E004, 0x0001 Items, ...) -- CPU_ReadMem(4 bytes @ 0xE000E004) -- Data:  01 00 00 00  returns 0x01 (0001ms, 0306ms total)
T1A80 000:361 JLINK_WriteMem(0xE0001000, 0x001C Bytes, ...) -- Data:  01 00 00 00 00 00 00 00 00 00 00 00 00 00 00 00 ... -- CPU_WriteMem(28 bytes @ 0xE0001000)  returns 0x1C (0001ms, 0307ms total)
T1A80 000:362 JLINK_ReadMem (0xE0001000, 0x001C Bytes, ...) -- CPU_ReadMem(28 bytes @ 0xE0001000) -- Data:  01 00 00 40 00 00 00 00 00 00 00 00 00 00 00 00 ...  returns 0x00 (0001ms, 0308ms total)
T1A80 000:363 JLINK_Halt()  returns 0x00 (0000ms, 0308ms total)
T1A80 000:363 JLINK_IsHalted()  returns TRUE (0000ms, 0308ms total)
T1A80 000:366 JLINK_WriteMem(0x20000000, 0x0164 Bytes, ...) -- Data:  00 BE 0A E0 0D 78 2D 06 68 40 08 24 40 00 00 D3 ... -- CPU_WriteMem(356 bytes @ 0x20000000)  returns 0x164 (0003ms, 0311ms total)
T1A80 000:369 JLINK_WriteReg(R0, 0x08000000)  returns 0x00 (0000ms, 0311ms total)
T1A80 000:369 JLINK_WriteReg(R1, 0x007A1200)  returns 0x00 (0000ms, 0311ms total)
T1A80 000:369 JLINK_WriteReg(R2, 0x00000001)  returns 0x00 (0000ms, 0311ms total)
T1A80 000:369 JLINK_WriteReg(R3, 0x00000000)  returns 0x00 (0000ms, 0311ms total)
T1A80 000:369 JLINK_WriteReg(R4, 0x00000000)  returns 0x00 (0000ms, 0311ms total)
T1A80 000:369 JLINK_WriteReg(R5, 0x00000000)  returns 0x00 (0000ms, 0311ms total)
T1A80 000:369 JLINK_WriteReg(R6, 0x00000000)  returns 0x00 (0000ms, 0311ms total)
T1A80 000:369 JLINK_WriteReg(R7, 0x00000000)  returns 0x00 (0000ms, 0311ms total)
T1A80 000:369 JLINK_WriteReg(R8, 0x00000000)  returns 0x00 (0000ms, 0311ms total)
T1A80 000:369 JLINK_WriteReg(R9, 0x20000160)  returns 0x00 (0000ms, 0311ms total)
T1A80 000:369 JLINK_WriteReg(R10, 0x00000000)  returns 0x00 (0000ms, 0311ms total)
T1A80 000:369 JLINK_WriteReg(R11, 0x00000000)  returns 0x00 (0000ms, 0311ms total)
T1A80 000:369 JLINK_WriteReg(R12, 0x00000000)  returns 0x00 (0000ms, 0311ms total)
T1A80 000:369 JLINK_WriteReg(R13, 0x20000800)  returns 0x00 (0000ms, 0311ms total)
T1A80 000:369 JLINK_WriteReg(R14, 0x20000001)  returns 0x00 (0001ms, 0312ms total)
T1A80 000:370 JLINK_WriteReg(R15, 0x20000038)  returns 0x00 (0000ms, 0312ms total)
T1A80 000:370 JLINK_WriteReg(XPSR, 0x01000000)  returns 0x00 (0000ms, 0312ms total)
T1A80 000:370 JLINK_WriteReg(MSP, 0x20000800)  returns 0x00 (0000ms, 0312ms total)
T1A80 000:370 JLINK_WriteReg(PSP, 0x20000800)  returns 0x00 (0000ms, 0312ms total)
T1A80 000:370 JLINK_WriteReg(CFBP, 0x00000000)  returns 0x00 (0000ms, 0312ms total)
T1A80 000:370 JLINK_SetBPEx(Addr = 0x20000000, Type = 0xFFFFFFF2) -- CPU_ReadMem(2 bytes @ 0x20000000)  returns 0x00000001 (0001ms, 0313ms total)
T1A80 000:371 JLINK_Go() -- CPU_WriteMem(2 bytes @ 0x20000000) -- CPU_WriteMem(4 bytes @ 0xE0002008) -- CPU_WriteMem(4 bytes @ 0xE000200C) -- CPU_WriteMem(4 bytes @ 0xE0002010) -- CPU_WriteMem(4 bytes @ 0xE0002014) -- CPU_WriteMem(4 bytes @ 0xE0002018) -- CPU_WriteMem(4 bytes @ 0xE000201C) (0008ms, 0321ms total)
T1A80 000:379 JLINK_IsHalted() -- CPU_ReadMem(2 bytes @ 0x20000000)  returns TRUE (0007ms, 0328ms total)
T1A80 000:386 JLINK_ReadReg(R15)  returns 0x20000000 (0000ms, 0321ms total)
T1A80 000:386 JLINK_ClrBPEx(BPHandle = 0x00000001)  returns 0x00 (0000ms, 0321ms total)
T1A80 000:386 JLINK_ReadReg(R0)  returns 0x00000000 (0000ms, 0321ms total)
T1A80 000:386 JLINK_WriteReg(R0, 0x08000000)  returns 0x00 (0000ms, 0321ms total)
T1A80 000:386 JLINK_WriteReg(R1, 0x007A1200)  returns 0x00 (0000ms, 0321ms total)
T1A80 000:386 JLINK_WriteReg(R2, 0x00000001)  returns 0x00 (0000ms, 0321ms total)
T1A80 000:386 JLINK_WriteReg(R3, 0x00000000)  returns 0x00 (0000ms, 0321ms total)
T1A80 000:386 JLINK_WriteReg(R4, 0x00000000)  returns 0x00 (0000ms, 0321ms total)
T1A80 000:386 JLINK_WriteReg(R5, 0x00000000)  returns 0x00 (0000ms, 0321ms total)
T1A80 000:386 JLINK_WriteReg(R6, 0x00000000)  returns 0x00 (0000ms, 0321ms total)
T1A80 000:386 JLINK_WriteReg(R7, 0x00000000)  returns 0x00 (0000ms, 0321ms total)
T1A80 000:386 JLINK_WriteReg(R8, 0x00000000)  returns 0x00 (0000ms, 0321ms total)
T1A80 000:386 JLINK_WriteReg(R9, 0x20000160)  returns 0x00 (0000ms, 0321ms total)
T1A80 000:386 JLINK_WriteReg(R10, 0x00000000)  returns 0x00 (0000ms, 0321ms total)
T1A80 000:386 JLINK_WriteReg(R11, 0x00000000)  returns 0x00 (0000ms, 0321ms total)
T1A80 000:386 JLINK_WriteReg(R12, 0x00000000)  returns 0x00 (0000ms, 0321ms total)
T1A80 000:386 JLINK_WriteReg(R13, 0x20000800)  returns 0x00 (0000ms, 0321ms total)
T1A80 000:386 JLINK_WriteReg(R14, 0x20000001)  returns 0x00 (0000ms, 0321ms total)
T1A80 000:386 JLINK_WriteReg(R15, 0x2000007C)  returns 0x00 (0001ms, 0322ms total)
T1A80 000:387 JLINK_WriteReg(XPSR, 0x01000000)  returns 0x00 (0000ms, 0322ms total)
T1A80 000:387 JLINK_WriteReg(MSP, 0x20000800)  returns 0x00 (0000ms, 0322ms total)
T1A80 000:387 JLINK_WriteReg(PSP, 0x20000800)  returns 0x00 (0000ms, 0322ms total)
T1A80 000:387 JLINK_WriteReg(CFBP, 0x00000000)  returns 0x00 (0000ms, 0322ms total)
T1A80 000:387 JLINK_SetBPEx(Addr = 0x20000000, Type = 0xFFFFFFF2)  returns 0x00000002 (0000ms, 0322ms total)
T1A80 000:387 JLINK_Go() (0001ms, 0323ms total)
T1A80 000:388 JLINK_IsHalted()  returns FALSE (0001ms, 0324ms total)
T1A80 000:433 JLINK_IsHalted() -- CPU_ReadMem(2 bytes @ 0x20000000)  returns TRUE (0006ms, 0329ms total)
T1A80 000:439 JLINK_ReadReg(R15)  returns 0x20000000 (0000ms, 0323ms total)
T1A80 000:439 JLINK_ClrBPEx(BPHandle = 0x00000002)  returns 0x00 (0000ms, 0323ms total)
T1A80 000:439 JLINK_ReadReg(R0)  returns 0x00000000 (0000ms, 0323ms total)
T1A80 000:490 JLINK_WriteReg(R0, 0x00000001)  returns 0x00 (0000ms, 0323ms total)
T1A80 000:490 JLINK_WriteReg(R1, 0x007A1200)  returns 0x00 (0000ms, 0323ms total)
T1A80 000:490 JLINK_WriteReg(R2, 0x00000001)  returns 0x00 (0000ms, 0323ms total)
T1A80 000:490 JLINK_WriteReg(R3, 0x00000000)  returns 0x00 (0001ms, 0324ms total)
T1A80 000:491 JLINK_WriteReg(R4, 0x00000000)  returns 0x00 (0000ms, 0324ms total)
T1A80 000:491 JLINK_WriteReg(R5, 0x00000000)  returns 0x00 (0000ms, 0324ms total)
T1A80 000:491 JLINK_WriteReg(R6, 0x00000000)  returns 0x00 (0000ms, 0324ms total)
T1A80 000:491 JLINK_WriteReg(R7, 0x00000000)  returns 0x00 (0000ms, 0324ms total)
T1A80 000:491 JLINK_WriteReg(R8, 0x00000000)  returns 0x00 (0000ms, 0324ms total)
T1A80 000:491 JLINK_WriteReg(R9, 0x20000160)  returns 0x00 (0000ms, 0324ms total)
T1A80 000:491 JLINK_WriteReg(R10, 0x00000000)  returns 0x00 (0000ms, 0324ms total)
T1A80 000:491 JLINK_WriteReg(R11, 0x00000000)  returns 0x00 (0000ms, 0324ms total)
T1A80 000:491 JLINK_WriteReg(R12, 0x00000000)  returns 0x00 (0000ms, 0324ms total)
T1A80 000:491 JLINK_WriteReg(R13, 0x20000800)  returns 0x00 (0000ms, 0324ms total)
T1A80 000:491 JLINK_WriteReg(R14, 0x20000001)  returns 0x00 (0000ms, 0324ms total)
T1A80 000:491 JLINK_WriteReg(R15, 0x2000006A)  returns 0x00 (0000ms, 0324ms total)
T1A80 000:491 JLINK_WriteReg(XPSR, 0x01000000)  returns 0x00 (0000ms, 0324ms total)
T1A80 000:491 JLINK_WriteReg(MSP, 0x20000800)  returns 0x00 (0000ms, 0324ms total)
T1A80 000:491 JLINK_WriteReg(PSP, 0x20000800)  returns 0x00 (0000ms, 0324ms total)
T1A80 000:491 JLINK_WriteReg(CFBP, 0x00000000)  returns 0x00 (0000ms, 0324ms total)
T1A80 000:491 JLINK_SetBPEx(Addr = 0x20000000, Type = 0xFFFFFFF2)  returns 0x00000003 (0000ms, 0324ms total)
T1A80 000:491 JLINK_Go() (0002ms, 0326ms total)
T1A80 000:493 JLINK_IsHalted() -- CPU_ReadMem(2 bytes @ 0x20000000)  returns TRUE (0006ms, 0332ms total)
T1A80 000:499 JLINK_ReadReg(R15)  returns 0x20000000 (0000ms, 0326ms total)
T1A80 000:499 JLINK_ClrBPEx(BPHandle = 0x00000003)  returns 0x00 (0000ms, 0326ms total)
T1A80 000:499 JLINK_ReadReg(R0)  returns 0x00000000 (0000ms, 0326ms total)
T1A80 000:504 JLINK_WriteMem(0x20000000, 0x0164 Bytes, ...) -- Data:  00 BE 0A E0 0D 78 2D 06 68 40 08 24 40 00 00 D3 ... -- CPU_WriteMem(356 bytes @ 0x20000000)  returns 0x164 (0004ms, 0330ms total)
T1A80 000:508 JLINK_WriteReg(R0, 0x08000000)  returns 0x00 (0000ms, 0330ms total)
T1A80 000:508 JLINK_WriteReg(R1, 0x007A1200)  returns 0x00 (0000ms, 0330ms total)
T1A80 000:508 JLINK_WriteReg(R2, 0x00000002)  returns 0x00 (0000ms, 0330ms total)
T1A80 000:508 JLINK_WriteReg(R3, 0x00000000)  returns 0x00 (0000ms, 0330ms total)
T1A80 000:508 JLINK_WriteReg(R4, 0x00000000)  returns 0x00 (0000ms, 0330ms total)
T1A80 000:508 JLINK_WriteReg(R5, 0x00000000)  returns 0x00 (0000ms, 0330ms total)
T1A80 000:508 JLINK_WriteReg(R6, 0x00000000)  returns 0x00 (0000ms, 0330ms total)
T1A80 000:508 JLINK_WriteReg(R7, 0x00000000)  returns 0x00 (0000ms, 0330ms total)
T1A80 000:508 JLINK_WriteReg(R8, 0x00000000)  returns 0x00 (0000ms, 0330ms total)
T1A80 000:508 JLINK_WriteReg(R9, 0x20000160)  returns 0x00 (0000ms, 0330ms total)
T1A80 000:508 JLINK_WriteReg(R10, 0x00000000)  returns 0x00 (0000ms, 0330ms total)
T1A80 000:508 JLINK_WriteReg(R11, 0x00000000)  returns 0x00 (0000ms, 0330ms total)
T1A80 000:508 JLINK_WriteReg(R12, 0x00000000)  returns 0x00 (0000ms, 0330ms total)
T1A80 000:508 JLINK_WriteReg(R13, 0x20000800)  returns 0x00 (0000ms, 0330ms total)
T1A80 000:508 JLINK_WriteReg(R14, 0x20000001)  returns 0x00 (0000ms, 0330ms total)
T1A80 000:508 JLINK_WriteReg(R15, 0x20000038)  returns 0x00 (0000ms, 0330ms total)
T1A80 000:508 JLINK_WriteReg(XPSR, 0x01000000)  returns 0x00 (0000ms, 0330ms total)
T1A80 000:508 JLINK_WriteReg(MSP, 0x20000800)  returns 0x00 (0000ms, 0330ms total)
T1A80 000:508 JLINK_WriteReg(PSP, 0x20000800)  returns 0x00 (0000ms, 0330ms total)
T1A80 000:508 JLINK_WriteReg(CFBP, 0x00000000)  returns 0x00 (0000ms, 0330ms total)
T1A80 000:508 JLINK_SetBPEx(Addr = 0x20000000, Type = 0xFFFFFFF2) -- CPU_ReadMem(2 bytes @ 0x20000000)  returns 0x00000004 (0001ms, 0331ms total)
T1A80 000:509 JLINK_Go() -- CPU_WriteMem(2 bytes @ 0x20000000) (0003ms, 0334ms total)
T1A80 000:512 JLINK_IsHalted() -- CPU_ReadMem(2 bytes @ 0x20000000)  returns TRUE (0006ms, 0340ms total)
T1A80 000:518 JLINK_ReadReg(R15)  returns 0x20000000 (0000ms, 0334ms total)
T1A80 000:518 JLINK_ClrBPEx(BPHandle = 0x00000004)  returns 0x00 (0000ms, 0334ms total)
T1A80 000:518 JLINK_ReadReg(R0)  returns 0x00000000 (0000ms, 0334ms total)
T1A80 000:518 JLINK_WriteMem(0x20000164, 0x0400 Bytes, ...) -- Data:  40 07 00 20 AD 0A 00 08 E9 05 00 08 EB 05 00 08 ... -- CPU_WriteMem(1024 bytes @ 0x20000164)  returns 0x400 (0007ms, 0341ms total)
T1A80 000:525 JLINK_WriteReg(R0, 0x08000000)  returns 0x00 (0000ms, 0341ms total)
T1A80 000:525 JLINK_WriteReg(R1, 0x00000400)  returns 0x00 (0000ms, 0341ms total)
T1A80 000:525 JLINK_WriteReg(R2, 0x20000164)  returns 0x00 (0000ms, 0341ms total)
T1A80 000:525 JLINK_WriteReg(R3, 0x00000000)  returns 0x00 (0000ms, 0341ms total)
T1A80 000:525 JLINK_WriteReg(R4, 0x00000000)  returns 0x00 (0000ms, 0341ms total)
T1A80 000:525 JLINK_WriteReg(R5, 0x00000000)  returns 0x00 (0000ms, 0341ms total)
T1A80 000:525 JLINK_WriteReg(R6, 0x00000000)  returns 0x00 (0000ms, 0341ms total)
T1A80 000:525 JLINK_WriteReg(R7, 0x00000000)  returns 0x00 (0000ms, 0341ms total)
T1A80 000:525 JLINK_WriteReg(R8, 0x00000000)  returns 0x00 (0000ms, 0341ms total)
T1A80 000:525 JLINK_WriteReg(R9, 0x20000160)  returns 0x00 (0000ms, 0341ms total)
T1A80 000:525 JLINK_WriteReg(R10, 0x00000000)  returns 0x00 (0000ms, 0341ms total)
T1A80 000:525 JLINK_WriteReg(R11, 0x00000000)  returns 0x00 (0000ms, 0341ms total)
T1A80 000:525 JLINK_WriteReg(R12, 0x00000000)  returns 0x00 (0000ms, 0341ms total)
T1A80 000:525 JLINK_WriteReg(R13, 0x20000800)  returns 0x00 (0000ms, 0341ms total)
T1A80 000:525 JLINK_WriteReg(R14, 0x20000001)  returns 0x00 (0000ms, 0341ms total)
T1A80 000:526 JLINK_WriteReg(R15, 0x200000F4)  returns 0x00 (0000ms, 0342ms total)
T1A80 000:526 JLINK_WriteReg(XPSR, 0x01000000)  returns 0x00 (0000ms, 0342ms total)
T1A80 000:526 JLINK_WriteReg(MSP, 0x20000800)  returns 0x00 (0000ms, 0342ms total)
T1A80 000:526 JLINK_WriteReg(PSP, 0x20000800)  returns 0x00 (0000ms, 0342ms total)
T1A80 000:526 JLINK_WriteReg(CFBP, 0x00000000)  returns 0x00 (0000ms, 0342ms total)
T1A80 000:526 JLINK_SetBPEx(Addr = 0x20000000, Type = 0xFFFFFFF2)  returns 0x00000005 (0000ms, 0342ms total)
T1A80 000:526 JLINK_Go() (0002ms, 0344ms total)
T1A80 000:528 JLINK_IsHalted()  returns FALSE (0000ms, 0344ms total)
T1A80 000:547 JLINK_IsHalted()  returns FALSE (0000ms, 0344ms total)
T1A80 000:551 JLINK_IsHalted()  returns FALSE (0000ms, 0344ms total)
T1A80 000:553 JLINK_IsHalted()  returns FALSE (0000ms, 0344ms total)
T1A80 000:555 JLINK_IsHalted()  returns FALSE (0000ms, 0344ms total)
T1A80 000:557 JLINK_IsHalted()  returns FALSE (0000ms, 0344ms total)
T1A80 000:559 JLINK_IsHalted() -- CPU_ReadMem(2 bytes @ 0x20000000)  returns TRUE (0006ms, 0350ms total)
T1A80 000:565 JLINK_ReadReg(R15)  returns 0x20000000 (0000ms, 0344ms total)
T1A80 000:565 JLINK_ClrBPEx(BPHandle = 0x00000005)  returns 0x00 (0000ms, 0344ms total)
T1A80 000:565 JLINK_ReadReg(R0)  returns 0x00000000 (0000ms, 0344ms total)
T1A80 000:565 JLINK_WriteMem(0x20000164, 0x0400 Bytes, ...) -- Data:  9D 41 05 F0 91 FB 81 46 11 98 05 F0 BF FC 07 46 ... -- CPU_WriteMem(1024 bytes @ 0x20000164)  returns 0x400 (0007ms, 0351ms total)
T1A80 000:572 JLINK_WriteReg(R0, 0x08000400)  returns 0x00 (0000ms, 0351ms total)
T1A80 000:572 JLINK_WriteReg(R1, 0x00000400)  returns 0x00 (0000ms, 0351ms total)
T1A80 000:572 JLINK_WriteReg(R2, 0x20000164)  returns 0x00 (0000ms, 0351ms total)
T1A80 000:572 JLINK_WriteReg(R3, 0x00000000)  returns 0x00 (0000ms, 0351ms total)
T1A80 000:572 JLINK_WriteReg(R4, 0x00000000)  returns 0x00 (0000ms, 0351ms total)
T1A80 000:572 JLINK_WriteReg(R5, 0x00000000)  returns 0x00 (0000ms, 0351ms total)
T1A80 000:572 JLINK_WriteReg(R6, 0x00000000)  returns 0x00 (0000ms, 0351ms total)
T1A80 000:572 JLINK_WriteReg(R7, 0x00000000)  returns 0x00 (0000ms, 0351ms total)
T1A80 000:572 JLINK_WriteReg(R8, 0x00000000)  returns 0x00 (0000ms, 0351ms total)
T1A80 000:572 JLINK_WriteReg(R9, 0x20000160)  returns 0x00 (0000ms, 0351ms total)
T1A80 000:572 JLINK_WriteReg(R10, 0x00000000)  returns 0x00 (0000ms, 0351ms total)
T1A80 000:572 JLINK_WriteReg(R11, 0x00000000)  returns 0x00 (0000ms, 0351ms total)
T1A80 000:572 JLINK_WriteReg(R12, 0x00000000)  returns 0x00 (0000ms, 0351ms total)
T1A80 000:572 JLINK_WriteReg(R13, 0x20000800)  returns 0x00 (0000ms, 0351ms total)
T1A80 000:572 JLINK_WriteReg(R14, 0x20000001)  returns 0x00 (0000ms, 0351ms total)
T1A80 000:572 JLINK_WriteReg(R15, 0x200000F4)  returns 0x00 (0000ms, 0351ms total)
T1A80 000:572 JLINK_WriteReg(XPSR, 0x01000000)  returns 0x00 (0000ms, 0351ms total)
T1A80 000:572 JLINK_WriteReg(MSP, 0x20000800)  returns 0x00 (0000ms, 0351ms total)
T1A80 000:572 JLINK_WriteReg(PSP, 0x20000800)  returns 0x00 (0000ms, 0351ms total)
T1A80 000:572 JLINK_WriteReg(CFBP, 0x00000000)  returns 0x00 (0000ms, 0351ms total)
T1A80 000:572 JLINK_SetBPEx(Addr = 0x20000000, Type = 0xFFFFFFF2)  returns 0x00000006 (0000ms, 0351ms total)
T1A80 000:572 JLINK_Go() (0003ms, 0354ms total)
T1A80 000:575 JLINK_IsHalted()  returns FALSE (0000ms, 0354ms total)
T1A80 000:581 JLINK_IsHalted()  returns FALSE (0000ms, 0354ms total)
T1A80 000:583 JLINK_IsHalted()  returns FALSE (0000ms, 0354ms total)
T1A80 000:585 JLINK_IsHalted()  returns FALSE (0000ms, 0354ms total)
T1A80 000:587 JLINK_IsHalted()  returns FALSE (0000ms, 0354ms total)
T1A80 000:589 JLINK_IsHalted()  returns FALSE (0000ms, 0354ms total)
T1A80 000:591 JLINK_IsHalted()  returns FALSE (0000ms, 0354ms total)
T1A80 000:593 JLINK_IsHalted()  returns FALSE (0000ms, 0354ms total)
T1A80 000:597 JLINK_IsHalted()  returns FALSE (0000ms, 0354ms total)
T1A80 000:599 JLINK_IsHalted()  returns FALSE (0000ms, 0354ms total)
T1A80 000:601 JLINK_IsHalted()  returns FALSE (0000ms, 0354ms total)
T1A80 000:603 JLINK_IsHalted()  returns FALSE (0000ms, 0354ms total)
T1A80 000:605 JLINK_IsHalted()  returns FALSE (0000ms, 0354ms total)
T1A80 000:607 JLINK_IsHalted() -- CPU_ReadMem(2 bytes @ 0x20000000)  returns TRUE (0006ms, 0360ms total)
T1A80 000:613 JLINK_ReadReg(R15)  returns 0x20000000 (0000ms, 0354ms total)
T1A80 000:613 JLINK_ClrBPEx(BPHandle = 0x00000006)  returns 0x00 (0000ms, 0354ms total)
T1A80 000:613 JLINK_ReadReg(R0)  returns 0x00000000 (0000ms, 0354ms total)
T1A80 000:614 JLINK_WriteMem(0x20000164, 0x0400 Bytes, ...) -- Data:  40 01 C1 EB C0 10 4F F6 FF 71 01 EA C0 00 1D 49 ... -- CPU_WriteMem(1024 bytes @ 0x20000164)  returns 0x400 (0007ms, 0361ms total)
T1A80 000:621 JLINK_WriteReg(R0, 0x08000800)  returns 0x00 (0000ms, 0361ms total)
T1A80 000:621 JLINK_WriteReg(R1, 0x00000400)  returns 0x00 (0000ms, 0361ms total)
T1A80 000:621 JLINK_WriteReg(R2, 0x20000164)  returns 0x00 (0000ms, 0361ms total)
T1A80 000:621 JLINK_WriteReg(R3, 0x00000000)  returns 0x00 (0000ms, 0361ms total)
T1A80 000:621 JLINK_WriteReg(R4, 0x00000000)  returns 0x00 (0000ms, 0361ms total)
T1A80 000:621 JLINK_WriteReg(R5, 0x00000000)  returns 0x00 (0000ms, 0361ms total)
T1A80 000:621 JLINK_WriteReg(R6, 0x00000000)  returns 0x00 (0000ms, 0361ms total)
T1A80 000:621 JLINK_WriteReg(R7, 0x00000000)  returns 0x00 (0000ms, 0361ms total)
T1A80 000:621 JLINK_WriteReg(R8, 0x00000000)  returns 0x00 (0000ms, 0361ms total)
T1A80 000:621 JLINK_WriteReg(R9, 0x20000160)  returns 0x00 (0000ms, 0361ms total)
T1A80 000:621 JLINK_WriteReg(R10, 0x00000000)  returns 0x00 (0000ms, 0361ms total)
T1A80 000:621 JLINK_WriteReg(R11, 0x00000000)  returns 0x00 (0000ms, 0361ms total)
T1A80 000:621 JLINK_WriteReg(R12, 0x00000000)  returns 0x00 (0000ms, 0361ms total)
T1A80 000:621 JLINK_WriteReg(R13, 0x20000800)  returns 0x00 (0000ms, 0361ms total)
T1A80 000:621 JLINK_WriteReg(R14, 0x20000001)  returns 0x00 (0000ms, 0361ms total)
T1A80 000:621 JLINK_WriteReg(R15, 0x200000F4)  returns 0x00 (0000ms, 0361ms total)
T1A80 000:621 JLINK_WriteReg(XPSR, 0x01000000)  returns 0x00 (0000ms, 0361ms total)
T1A80 000:621 JLINK_WriteReg(MSP, 0x20000800)  returns 0x00 (0000ms, 0361ms total)
T1A80 000:621 JLINK_WriteReg(PSP, 0x20000800)  returns 0x00 (0000ms, 0361ms total)
T1A80 000:621 JLINK_WriteReg(CFBP, 0x00000000)  returns 0x00 (0000ms, 0361ms total)
T1A80 000:621 JLINK_SetBPEx(Addr = 0x20000000, Type = 0xFFFFFFF2)  returns 0x00000007 (0000ms, 0361ms total)
T1A80 000:621 JLINK_Go() (0002ms, 0363ms total)
T1A80 000:623 JLINK_IsHalted()  returns FALSE (0001ms, 0364ms total)
T1A80 000:629 JLINK_IsHalted()  returns FALSE (0000ms, 0363ms total)
T1A80 000:631 JLINK_IsHalted()  returns FALSE (0000ms, 0363ms total)
T1A80 000:633 JLINK_IsHalted()  returns FALSE (0000ms, 0363ms total)
T1A80 000:635 JLINK_IsHalted()  returns FALSE (0000ms, 0363ms total)
T1A80 000:637 JLINK_IsHalted()  returns FALSE (0000ms, 0363ms total)
T1A80 000:645 JLINK_IsHalted()  returns FALSE (0000ms, 0363ms total)
T1A80 000:647 JLINK_IsHalted()  returns FALSE (0000ms, 0363ms total)
T1A80 000:649 JLINK_IsHalted()  returns FALSE (0000ms, 0363ms total)
T1A80 000:651 JLINK_IsHalted()  returns FALSE (0000ms, 0363ms total)
T1A80 000:655 JLINK_IsHalted() -- CPU_ReadMem(2 bytes @ 0x20000000)  returns TRUE (0006ms, 0369ms total)
T1A80 000:661 JLINK_ReadReg(R15)  returns 0x20000000 (0000ms, 0363ms total)
T1A80 000:661 JLINK_ClrBPEx(BPHandle = 0x00000007)  returns 0x00 (0000ms, 0363ms total)
T1A80 000:661 JLINK_ReadReg(R0)  returns 0x00000000 (0000ms, 0363ms total)
T1A80 000:661 JLINK_WriteMem(0x20000164, 0x0400 Bytes, ...) -- Data:  08 D1 01 21 10 20 00 F0 0F FB 00 21 10 20 00 F0 ... -- CPU_WriteMem(1024 bytes @ 0x20000164)  returns 0x400 (0007ms, 0370ms total)
T1A80 000:668 JLINK_WriteReg(R0, 0x08000C00)  returns 0x00 (0000ms, 0370ms total)
T1A80 000:668 JLINK_WriteReg(R1, 0x00000400)  returns 0x00 (0000ms, 0370ms total)
T1A80 000:668 JLINK_WriteReg(R2, 0x20000164)  returns 0x00 (0000ms, 0370ms total)
T1A80 000:668 JLINK_WriteReg(R3, 0x00000000)  returns 0x00 (0000ms, 0370ms total)
T1A80 000:668 JLINK_WriteReg(R4, 0x00000000)  returns 0x00 (0000ms, 0370ms total)
T1A80 000:668 JLINK_WriteReg(R5, 0x00000000)  returns 0x00 (0000ms, 0370ms total)
T1A80 000:668 JLINK_WriteReg(R6, 0x00000000)  returns 0x00 (0000ms, 0370ms total)
T1A80 000:668 JLINK_WriteReg(R7, 0x00000000)  returns 0x00 (0000ms, 0370ms total)
T1A80 000:668 JLINK_WriteReg(R8, 0x00000000)  returns 0x00 (0001ms, 0371ms total)
T1A80 000:669 JLINK_WriteReg(R9, 0x20000160)  returns 0x00 (0000ms, 0371ms total)
T1A80 000:669 JLINK_WriteReg(R10, 0x00000000)  returns 0x00 (0000ms, 0371ms total)
T1A80 000:669 JLINK_WriteReg(R11, 0x00000000)  returns 0x00 (0000ms, 0371ms total)
T1A80 000:669 JLINK_WriteReg(R12, 0x00000000)  returns 0x00 (0000ms, 0371ms total)
T1A80 000:669 JLINK_WriteReg(R13, 0x20000800)  returns 0x00 (0000ms, 0371ms total)
T1A80 000:669 JLINK_WriteReg(R14, 0x20000001)  returns 0x00 (0000ms, 0371ms total)
T1A80 000:669 JLINK_WriteReg(R15, 0x200000F4)  returns 0x00 (0000ms, 0371ms total)
T1A80 000:669 JLINK_WriteReg(XPSR, 0x01000000)  returns 0x00 (0000ms, 0371ms total)
T1A80 000:669 JLINK_WriteReg(MSP, 0x20000800)  returns 0x00 (0000ms, 0371ms total)
T1A80 000:669 JLINK_WriteReg(PSP, 0x20000800)  returns 0x00 (0000ms, 0371ms total)
T1A80 000:669 JLINK_WriteReg(CFBP, 0x00000000)  returns 0x00 (0000ms, 0371ms total)
T1A80 000:669 JLINK_SetBPEx(Addr = 0x20000000, Type = 0xFFFFFFF2)  returns 0x00000008 (0000ms, 0371ms total)
T1A80 000:669 JLINK_Go() (0002ms, 0373ms total)
T1A80 000:671 JLINK_IsHalted()  returns FALSE (0001ms, 0374ms total)
T1A80 000:674 JLINK_IsHalted()  returns FALSE (0000ms, 0373ms total)
T1A80 000:676 JLINK_IsHalted()  returns FALSE (0000ms, 0373ms total)
T1A80 000:678 JLINK_IsHalted()  returns FALSE (0000ms, 0373ms total)
T1A80 000:680 JLINK_IsHalted()  returns FALSE (0000ms, 0373ms total)
T1A80 000:682 JLINK_IsHalted()  returns FALSE (0000ms, 0373ms total)
T1A80 000:684 JLINK_IsHalted()  returns FALSE (0000ms, 0373ms total)
T1A80 000:686 JLINK_IsHalted()  returns FALSE (0000ms, 0373ms total)
T1A80 000:688 JLINK_IsHalted()  returns FALSE (0000ms, 0373ms total)
T1A80 000:697 JLINK_IsHalted()  returns FALSE (0000ms, 0373ms total)
T1A80 000:699 JLINK_IsHalted()  returns FALSE (0000ms, 0373ms total)
T1A80 000:701 JLINK_IsHalted()  returns FALSE (0000ms, 0373ms total)
T1A80 000:703 JLINK_IsHalted() -- CPU_ReadMem(2 bytes @ 0x20000000)  returns TRUE (0005ms, 0378ms total)
T1A80 000:709 JLINK_ReadReg(R15)  returns 0x20000000 (0000ms, 0373ms total)
T1A80 000:709 JLINK_ClrBPEx(BPHandle = 0x00000008)  returns 0x00 (0000ms, 0373ms total)
T1A80 000:709 JLINK_ReadReg(R0)  returns 0x00000000 (0000ms, 0373ms total)
T1A80 000:709 JLINK_WriteMem(0x20000164, 0x0400 Bytes, ...) -- Data:  00 2D F2 D0 31 20 FF F7 CE FF 08 B1 01 24 00 E0 ... -- CPU_WriteMem(1024 bytes @ 0x20000164)  returns 0x400 (0007ms, 0380ms total)
T1A80 000:716 JLINK_WriteReg(R0, 0x08001000)  returns 0x00 (0000ms, 0380ms total)
T1A80 000:716 JLINK_WriteReg(R1, 0x00000400)  returns 0x00 (0000ms, 0380ms total)
T1A80 000:716 JLINK_WriteReg(R2, 0x20000164)  returns 0x00 (0000ms, 0380ms total)
T1A80 000:716 JLINK_WriteReg(R3, 0x00000000)  returns 0x00 (0000ms, 0380ms total)
T1A80 000:716 JLINK_WriteReg(R4, 0x00000000)  returns 0x00 (0000ms, 0380ms total)
T1A80 000:716 JLINK_WriteReg(R5, 0x00000000)  returns 0x00 (0000ms, 0380ms total)
T1A80 000:716 JLINK_WriteReg(R6, 0x00000000)  returns 0x00 (0000ms, 0380ms total)
T1A80 000:716 JLINK_WriteReg(R7, 0x00000000)  returns 0x00 (0000ms, 0380ms total)
T1A80 000:716 JLINK_WriteReg(R8, 0x00000000)  returns 0x00 (0000ms, 0380ms total)
T1A80 000:716 JLINK_WriteReg(R9, 0x20000160)  returns 0x00 (0000ms, 0380ms total)
T1A80 000:716 JLINK_WriteReg(R10, 0x00000000)  returns 0x00 (0000ms, 0380ms total)
T1A80 000:716 JLINK_WriteReg(R11, 0x00000000)  returns 0x00 (0000ms, 0380ms total)
T1A80 000:716 JLINK_WriteReg(R12, 0x00000000)  returns 0x00 (0000ms, 0380ms total)
T1A80 000:716 JLINK_WriteReg(R13, 0x20000800)  returns 0x00 (0000ms, 0380ms total)
T1A80 000:716 JLINK_WriteReg(R14, 0x20000001)  returns 0x00 (0000ms, 0380ms total)
T1A80 000:716 JLINK_WriteReg(R15, 0x200000F4)  returns 0x00 (0000ms, 0380ms total)
T1A80 000:716 JLINK_WriteReg(XPSR, 0x01000000)  returns 0x00 (0001ms, 0381ms total)
T1A80 000:717 JLINK_WriteReg(MSP, 0x20000800)  returns 0x00 (0000ms, 0381ms total)
T1A80 000:717 JLINK_WriteReg(PSP, 0x20000800)  returns 0x00 (0000ms, 0381ms total)
T1A80 000:717 JLINK_WriteReg(CFBP, 0x00000000)  returns 0x00 (0000ms, 0381ms total)
T1A80 000:717 JLINK_SetBPEx(Addr = 0x20000000, Type = 0xFFFFFFF2)  returns 0x00000009 (0000ms, 0381ms total)
T1A80 000:717 JLINK_Go() (0002ms, 0383ms total)
T1A80 000:719 JLINK_IsHalted()  returns FALSE (0000ms, 0383ms total)
T1A80 000:721 JLINK_IsHalted()  returns FALSE (0000ms, 0383ms total)
T1A80 000:723 JLINK_IsHalted()  returns FALSE (0000ms, 0383ms total)
T1A80 000:725 JLINK_IsHalted()  returns FALSE (0000ms, 0383ms total)
T1A80 000:727 JLINK_IsHalted()  returns FALSE (0000ms, 0383ms total)
T1A80 000:729 JLINK_IsHalted()  returns FALSE (0000ms, 0383ms total)
T1A80 000:731 JLINK_IsHalted()  returns FALSE (0000ms, 0383ms total)
T1A80 000:733 JLINK_IsHalted()  returns FALSE (0000ms, 0383ms total)
T1A80 000:735 JLINK_IsHalted()  returns FALSE (0000ms, 0383ms total)
T1A80 000:737 JLINK_IsHalted()  returns FALSE (0000ms, 0383ms total)
T1A80 000:739 JLINK_IsHalted()  returns FALSE (0000ms, 0383ms total)
T1A80 000:741 JLINK_IsHalted()  returns FALSE (0000ms, 0383ms total)
T1A80 000:743 JLINK_IsHalted()  returns FALSE (0000ms, 0383ms total)
T1A80 000:745 JLINK_IsHalted()  returns FALSE (0000ms, 0383ms total)
T1A80 000:747 JLINK_IsHalted()  returns FALSE (0000ms, 0383ms total)
T1A80 000:749 JLINK_IsHalted()  returns FALSE (0000ms, 0383ms total)
T1A80 000:758 JLINK_IsHalted() -- CPU_ReadMem(2 bytes @ 0x20000000)  returns TRUE (0005ms, 0388ms total)
T1A80 000:763 JLINK_ReadReg(R15)  returns 0x20000000 (0000ms, 0383ms total)
T1A80 000:763 JLINK_ClrBPEx(BPHandle = 0x00000009)  returns 0x00 (0001ms, 0384ms total)
T1A80 000:764 JLINK_ReadReg(R0)  returns 0x00000000 (0000ms, 0384ms total)
T1A80 000:764 JLINK_WriteMem(0x20000164, 0x0400 Bytes, ...) -- Data:  08 E0 32 20 00 EB 09 10 64 21 B0 FB F1 F0 00 F0 ... -- CPU_WriteMem(1024 bytes @ 0x20000164)  returns 0x400 (0007ms, 0391ms total)
T1A80 000:771 JLINK_WriteReg(R0, 0x08001400)  returns 0x00 (0000ms, 0391ms total)
T1A80 000:771 JLINK_WriteReg(R1, 0x00000400)  returns 0x00 (0000ms, 0391ms total)
T1A80 000:771 JLINK_WriteReg(R2, 0x20000164)  returns 0x00 (0000ms, 0391ms total)
T1A80 000:771 JLINK_WriteReg(R3, 0x00000000)  returns 0x00 (0000ms, 0391ms total)
T1A80 000:771 JLINK_WriteReg(R4, 0x00000000)  returns 0x00 (0000ms, 0391ms total)
T1A80 000:771 JLINK_WriteReg(R5, 0x00000000)  returns 0x00 (0000ms, 0391ms total)
T1A80 000:771 JLINK_WriteReg(R6, 0x00000000)  returns 0x00 (0000ms, 0391ms total)
T1A80 000:771 JLINK_WriteReg(R7, 0x00000000)  returns 0x00 (0000ms, 0391ms total)
T1A80 000:771 JLINK_WriteReg(R8, 0x00000000)  returns 0x00 (0000ms, 0391ms total)
T1A80 000:771 JLINK_WriteReg(R9, 0x20000160)  returns 0x00 (0000ms, 0391ms total)
T1A80 000:771 JLINK_WriteReg(R10, 0x00000000)  returns 0x00 (0000ms, 0391ms total)
T1A80 000:771 JLINK_WriteReg(R11, 0x00000000)  returns 0x00 (0000ms, 0391ms total)
T1A80 000:771 JLINK_WriteReg(R12, 0x00000000)  returns 0x00 (0000ms, 0391ms total)
T1A80 000:771 JLINK_WriteReg(R13, 0x20000800)  returns 0x00 (0000ms, 0391ms total)
T1A80 000:771 JLINK_WriteReg(R14, 0x20000001)  returns 0x00 (0000ms, 0391ms total)
T1A80 000:771 JLINK_WriteReg(R15, 0x200000F4)  returns 0x00 (0000ms, 0391ms total)
T1A80 000:771 JLINK_WriteReg(XPSR, 0x01000000)  returns 0x00 (0000ms, 0391ms total)
T1A80 000:771 JLINK_WriteReg(MSP, 0x20000800)  returns 0x00 (0000ms, 0391ms total)
T1A80 000:771 JLINK_WriteReg(PSP, 0x20000800)  returns 0x00 (0000ms, 0391ms total)
T1A80 000:771 JLINK_WriteReg(CFBP, 0x00000000)  returns 0x00 (0000ms, 0391ms total)
T1A80 000:771 JLINK_SetBPEx(Addr = 0x20000000, Type = 0xFFFFFFF2)  returns 0x0000000A (0000ms, 0391ms total)
T1A80 000:771 JLINK_Go() (0002ms, 0393ms total)
T1A80 000:773 JLINK_IsHalted()  returns FALSE (0001ms, 0394ms total)
T1A80 000:779 JLINK_IsHalted()  returns FALSE (0000ms, 0393ms total)
T1A80 000:781 JLINK_IsHalted()  returns FALSE (0000ms, 0393ms total)
T1A80 000:783 JLINK_IsHalted()  returns FALSE (0000ms, 0393ms total)
T1A80 000:785 JLINK_IsHalted()  returns FALSE (0000ms, 0393ms total)
T1A80 000:787 JLINK_IsHalted()  returns FALSE (0000ms, 0393ms total)
T1A80 000:789 JLINK_IsHalted()  returns FALSE (0000ms, 0393ms total)
T1A80 000:791 JLINK_IsHalted()  returns FALSE (0000ms, 0393ms total)
T1A80 000:793 JLINK_IsHalted()  returns FALSE (0000ms, 0393ms total)
T1A80 000:803 JLINK_IsHalted()  returns FALSE (0000ms, 0393ms total)
T1A80 000:805 JLINK_IsHalted() -- CPU_ReadMem(2 bytes @ 0x20000000)  returns TRUE (0006ms, 0399ms total)
T1A80 000:811 JLINK_ReadReg(R15)  returns 0x20000000 (0000ms, 0393ms total)
T1A80 000:811 JLINK_ClrBPEx(BPHandle = 0x0000000A)  returns 0x00 (0000ms, 0393ms total)
T1A80 000:811 JLINK_ReadReg(R0)  returns 0x00000000 (0000ms, 0393ms total)
T1A80 000:811 JLINK_WriteMem(0x20000164, 0x0400 Bytes, ...) -- Data:  AA E7 1F B5 04 46 B0 48 00 7A 00 F0 03 00 54 F8 ... -- CPU_WriteMem(1024 bytes @ 0x20000164)  returns 0x400 (0007ms, 0400ms total)
T1A80 000:818 JLINK_WriteReg(R0, 0x08001800)  returns 0x00 (0000ms, 0400ms total)
T1A80 000:818 JLINK_WriteReg(R1, 0x00000400)  returns 0x00 (0000ms, 0400ms total)
T1A80 000:818 JLINK_WriteReg(R2, 0x20000164)  returns 0x00 (0000ms, 0400ms total)
T1A80 000:818 JLINK_WriteReg(R3, 0x00000000)  returns 0x00 (0000ms, 0400ms total)
T1A80 000:818 JLINK_WriteReg(R4, 0x00000000)  returns 0x00 (0000ms, 0400ms total)
T1A80 000:818 JLINK_WriteReg(R5, 0x00000000)  returns 0x00 (0000ms, 0400ms total)
T1A80 000:818 JLINK_WriteReg(R6, 0x00000000)  returns 0x00 (0000ms, 0400ms total)
T1A80 000:818 JLINK_WriteReg(R7, 0x00000000)  returns 0x00 (0000ms, 0400ms total)
T1A80 000:818 JLINK_WriteReg(R8, 0x00000000)  returns 0x00 (0000ms, 0400ms total)
T1A80 000:818 JLINK_WriteReg(R9, 0x20000160)  returns 0x00 (0000ms, 0400ms total)
T1A80 000:818 JLINK_WriteReg(R10, 0x00000000)  returns 0x00 (0000ms, 0400ms total)
T1A80 000:818 JLINK_WriteReg(R11, 0x00000000)  returns 0x00 (0000ms, 0400ms total)
T1A80 000:818 JLINK_WriteReg(R12, 0x00000000)  returns 0x00 (0000ms, 0400ms total)
T1A80 000:818 JLINK_WriteReg(R13, 0x20000800)  returns 0x00 (0000ms, 0400ms total)
T1A80 000:818 JLINK_WriteReg(R14, 0x20000001)  returns 0x00 (0000ms, 0400ms total)
T1A80 000:818 JLINK_WriteReg(R15, 0x200000F4)  returns 0x00 (0000ms, 0400ms total)
T1A80 000:818 JLINK_WriteReg(XPSR, 0x01000000)  returns 0x00 (0000ms, 0400ms total)
T1A80 000:818 JLINK_WriteReg(MSP, 0x20000800)  returns 0x00 (0000ms, 0400ms total)
T1A80 000:818 JLINK_WriteReg(PSP, 0x20000800)  returns 0x00 (0000ms, 0400ms total)
T1A80 000:818 JLINK_WriteReg(CFBP, 0x00000000)  returns 0x00 (0000ms, 0400ms total)
T1A80 000:818 JLINK_SetBPEx(Addr = 0x20000000, Type = 0xFFFFFFF2)  returns 0x0000000B (0001ms, 0401ms total)
T1A80 000:819 JLINK_Go() (0002ms, 0403ms total)
T1A80 000:821 JLINK_IsHalted()  returns FALSE (0001ms, 0404ms total)
T1A80 000:824 JLINK_IsHalted()  returns FALSE (0000ms, 0403ms total)
T1A80 000:827 JLINK_IsHalted()  returns FALSE (0000ms, 0403ms total)
T1A80 000:829 JLINK_IsHalted()  returns FALSE (0000ms, 0403ms total)
T1A80 000:831 JLINK_IsHalted()  returns FALSE (0000ms, 0403ms total)
T1A80 000:833 JLINK_IsHalted()  returns FALSE (0000ms, 0403ms total)
T1A80 000:835 JLINK_IsHalted()  returns FALSE (0000ms, 0403ms total)
T1A80 000:837 JLINK_IsHalted()  returns FALSE (0000ms, 0403ms total)
T1A80 000:839 JLINK_IsHalted()  returns FALSE (0000ms, 0403ms total)
T1A80 000:841 JLINK_IsHalted()  returns FALSE (0001ms, 0404ms total)
T1A80 000:844 JLINK_IsHalted()  returns FALSE (0001ms, 0404ms total)
T1A80 000:847 JLINK_IsHalted()  returns FALSE (0000ms, 0403ms total)
T1A80 000:849 JLINK_IsHalted()  returns FALSE (0000ms, 0403ms total)
T1A80 000:851 JLINK_IsHalted()  returns FALSE (0000ms, 0403ms total)
T1A80 000:853 JLINK_IsHalted() -- CPU_ReadMem(2 bytes @ 0x20000000)  returns TRUE (0006ms, 0409ms total)
T1A80 000:859 JLINK_ReadReg(R15)  returns 0x20000000 (0000ms, 0403ms total)
T1A80 000:859 JLINK_ClrBPEx(BPHandle = 0x0000000B)  returns 0x00 (0000ms, 0403ms total)
T1A80 000:859 JLINK_ReadReg(R0)  returns 0x00000000 (0000ms, 0403ms total)
T1A80 000:861 JLINK_WriteMem(0x20000164, 0x0400 Bytes, ...) -- Data:  4F F4 92 70 01 F0 83 FD 10 B1 4F F0 FF 30 77 E7 ... -- CPU_WriteMem(1024 bytes @ 0x20000164)  returns 0x400 (0007ms, 0410ms total)
T1A80 000:868 JLINK_WriteReg(R0, 0x08001C00)  returns 0x00 (0000ms, 0410ms total)
T1A80 000:868 JLINK_WriteReg(R1, 0x00000400)  returns 0x00 (0000ms, 0410ms total)
T1A80 000:868 JLINK_WriteReg(R2, 0x20000164)  returns 0x00 (0000ms, 0410ms total)
T1A80 000:868 JLINK_WriteReg(R3, 0x00000000)  returns 0x00 (0000ms, 0410ms total)
T1A80 000:868 JLINK_WriteReg(R4, 0x00000000)  returns 0x00 (0000ms, 0410ms total)
T1A80 000:868 JLINK_WriteReg(R5, 0x00000000)  returns 0x00 (0000ms, 0410ms total)
T1A80 000:868 JLINK_WriteReg(R6, 0x00000000)  returns 0x00 (0000ms, 0410ms total)
T1A80 000:868 JLINK_WriteReg(R7, 0x00000000)  returns 0x00 (0000ms, 0410ms total)
T1A80 000:868 JLINK_WriteReg(R8, 0x00000000)  returns 0x00 (0000ms, 0410ms total)
T1A80 000:868 JLINK_WriteReg(R9, 0x20000160)  returns 0x00 (0000ms, 0410ms total)
T1A80 000:868 JLINK_WriteReg(R10, 0x00000000)  returns 0x00 (0000ms, 0410ms total)
T1A80 000:868 JLINK_WriteReg(R11, 0x00000000)  returns 0x00 (0000ms, 0410ms total)
T1A80 000:868 JLINK_WriteReg(R12, 0x00000000)  returns 0x00 (0000ms, 0410ms total)
T1A80 000:868 JLINK_WriteReg(R13, 0x20000800)  returns 0x00 (0000ms, 0410ms total)
T1A80 000:868 JLINK_WriteReg(R14, 0x20000001)  returns 0x00 (0000ms, 0410ms total)
T1A80 000:868 JLINK_WriteReg(R15, 0x200000F4)  returns 0x00 (0000ms, 0410ms total)
T1A80 000:868 JLINK_WriteReg(XPSR, 0x01000000)  returns 0x00 (0000ms, 0410ms total)
T1A80 000:868 JLINK_WriteReg(MSP, 0x20000800)  returns 0x00 (0000ms, 0410ms total)
T1A80 000:868 JLINK_WriteReg(PSP, 0x20000800)  returns 0x00 (0000ms, 0410ms total)
T1A80 000:868 JLINK_WriteReg(CFBP, 0x00000000)  returns 0x00 (0000ms, 0410ms total)
T1A80 000:868 JLINK_SetBPEx(Addr = 0x20000000, Type = 0xFFFFFFF2)  returns 0x0000000C (0000ms, 0410ms total)
T1A80 000:868 JLINK_Go() (0002ms, 0412ms total)
T1A80 000:870 JLINK_IsHalted()  returns FALSE (0001ms, 0413ms total)
T1A80 000:877 JLINK_IsHalted()  returns FALSE (0000ms, 0412ms total)
T1A80 000:879 JLINK_IsHalted()  returns FALSE (0000ms, 0412ms total)
T1A80 000:882 JLINK_IsHalted()  returns FALSE (0000ms, 0412ms total)
T1A80 000:884 JLINK_IsHalted()  returns FALSE (0000ms, 0412ms total)
T1A80 000:886 JLINK_IsHalted()  returns FALSE (0000ms, 0412ms total)
T1A80 000:888 JLINK_IsHalted()  returns FALSE (0000ms, 0412ms total)
T1A80 000:890 JLINK_IsHalted()  returns FALSE (0000ms, 0412ms total)
T1A80 000:892 JLINK_IsHalted()  returns FALSE (0000ms, 0412ms total)
T1A80 000:894 JLINK_IsHalted()  returns FALSE (0000ms, 0412ms total)
T1A80 000:896 JLINK_IsHalted()  returns FALSE (0000ms, 0412ms total)
T1A80 000:898 JLINK_IsHalted()  returns FALSE (0000ms, 0412ms total)
T1A80 000:900 JLINK_IsHalted()  returns FALSE (0000ms, 0412ms total)
T1A80 000:902 JLINK_IsHalted() -- CPU_ReadMem(2 bytes @ 0x20000000)  returns TRUE (0006ms, 0418ms total)
T1A80 000:908 JLINK_ReadReg(R15)  returns 0x20000000 (0000ms, 0412ms total)
T1A80 000:908 JLINK_ClrBPEx(BPHandle = 0x0000000C)  returns 0x00 (0000ms, 0412ms total)
T1A80 000:908 JLINK_ReadReg(R0)  returns 0x00000000 (0000ms, 0412ms total)
T1A80 000:908 JLINK_WriteMem(0x20000164, 0x0400 Bytes, ...) -- Data:  8D F8 00 00 02 E0 D8 20 8D F8 00 00 6A 46 01 21 ... -- CPU_WriteMem(1024 bytes @ 0x20000164)  returns 0x400 (0007ms, 0419ms total)
T1A80 000:915 JLINK_WriteReg(R0, 0x08002000)  returns 0x00 (0000ms, 0419ms total)
T1A80 000:915 JLINK_WriteReg(R1, 0x00000400)  returns 0x00 (0000ms, 0419ms total)
T1A80 000:915 JLINK_WriteReg(R2, 0x20000164)  returns 0x00 (0000ms, 0419ms total)
T1A80 000:915 JLINK_WriteReg(R3, 0x00000000)  returns 0x00 (0000ms, 0419ms total)
T1A80 000:915 JLINK_WriteReg(R4, 0x00000000)  returns 0x00 (0000ms, 0419ms total)
T1A80 000:915 JLINK_WriteReg(R5, 0x00000000)  returns 0x00 (0000ms, 0419ms total)
T1A80 000:915 JLINK_WriteReg(R6, 0x00000000)  returns 0x00 (0000ms, 0419ms total)
T1A80 000:915 JLINK_WriteReg(R7, 0x00000000)  returns 0x00 (0001ms, 0420ms total)
T1A80 000:916 JLINK_WriteReg(R8, 0x00000000)  returns 0x00 (0000ms, 0420ms total)
T1A80 000:916 JLINK_WriteReg(R9, 0x20000160)  returns 0x00 (0000ms, 0420ms total)
T1A80 000:916 JLINK_WriteReg(R10, 0x00000000)  returns 0x00 (0000ms, 0420ms total)
T1A80 000:916 JLINK_WriteReg(R11, 0x00000000)  returns 0x00 (0000ms, 0420ms total)
T1A80 000:916 JLINK_WriteReg(R12, 0x00000000)  returns 0x00 (0000ms, 0420ms total)
T1A80 000:916 JLINK_WriteReg(R13, 0x20000800)  returns 0x00 (0000ms, 0420ms total)
T1A80 000:916 JLINK_WriteReg(R14, 0x20000001)  returns 0x00 (0000ms, 0420ms total)
T1A80 000:916 JLINK_WriteReg(R15, 0x200000F4)  returns 0x00 (0000ms, 0420ms total)
T1A80 000:916 JLINK_WriteReg(XPSR, 0x01000000)  returns 0x00 (0000ms, 0420ms total)
T1A80 000:916 JLINK_WriteReg(MSP, 0x20000800)  returns 0x00 (0000ms, 0420ms total)
T1A80 000:916 JLINK_WriteReg(PSP, 0x20000800)  returns 0x00 (0000ms, 0420ms total)
T1A80 000:916 JLINK_WriteReg(CFBP, 0x00000000)  returns 0x00 (0000ms, 0420ms total)
T1A80 000:916 JLINK_SetBPEx(Addr = 0x20000000, Type = 0xFFFFFFF2)  returns 0x0000000D (0000ms, 0420ms total)
T1A80 000:916 JLINK_Go() (0002ms, 0422ms total)
T1A80 000:918 JLINK_IsHalted()  returns FALSE (0001ms, 0423ms total)
T1A80 000:926 JLINK_IsHalted()  returns FALSE (0000ms, 0422ms total)
T1A80 000:928 JLINK_IsHalted()  returns FALSE (0000ms, 0422ms total)
T1A80 000:930 JLINK_IsHalted()  returns FALSE (0000ms, 0422ms total)
T1A80 000:932 JLINK_IsHalted()  returns FALSE (0000ms, 0422ms total)
T1A80 000:934 JLINK_IsHalted()  returns FALSE (0000ms, 0422ms total)
T1A80 000:936 JLINK_IsHalted()  returns FALSE (0000ms, 0422ms total)
T1A80 000:938 JLINK_IsHalted()  returns FALSE (0000ms, 0422ms total)
T1A80 000:940 JLINK_IsHalted()  returns FALSE (0000ms, 0422ms total)
T1A80 000:942 JLINK_IsHalted()  returns FALSE (0000ms, 0422ms total)
T1A80 000:944 JLINK_IsHalted()  returns FALSE (0000ms, 0422ms total)
T1A80 000:946 JLINK_IsHalted()  returns FALSE (0000ms, 0422ms total)
T1A80 000:948 JLINK_IsHalted()  returns FALSE (0000ms, 0422ms total)
T1A80 000:950 JLINK_IsHalted() -- CPU_ReadMem(2 bytes @ 0x20000000)  returns TRUE (0006ms, 0428ms total)
T1A80 000:956 JLINK_ReadReg(R15)  returns 0x20000000 (0000ms, 0422ms total)
T1A80 000:956 JLINK_ClrBPEx(BPHandle = 0x0000000D)  returns 0x00 (0000ms, 0422ms total)
T1A80 000:956 JLINK_ReadReg(R0)  returns 0x00000000 (0000ms, 0422ms total)
T1A80 000:956 JLINK_WriteMem(0x20000164, 0x0400 Bytes, ...) -- Data:  70 00 30 80 0A 48 80 7A 10 F0 03 0F 03 D0 05 A9 ... -- CPU_WriteMem(1024 bytes @ 0x20000164)  returns 0x400 (0007ms, 0429ms total)
T1A80 000:963 JLINK_WriteReg(R0, 0x08002400)  returns 0x00 (0000ms, 0429ms total)
T1A80 000:963 JLINK_WriteReg(R1, 0x00000400)  returns 0x00 (0000ms, 0429ms total)
T1A80 000:963 JLINK_WriteReg(R2, 0x20000164)  returns 0x00 (0000ms, 0429ms total)
T1A80 000:964 JLINK_WriteReg(R3, 0x00000000)  returns 0x00 (0000ms, 0429ms total)
T1A80 000:964 JLINK_WriteReg(R4, 0x00000000)  returns 0x00 (0000ms, 0429ms total)
T1A80 000:964 JLINK_WriteReg(R5, 0x00000000)  returns 0x00 (0000ms, 0429ms total)
T1A80 000:964 JLINK_WriteReg(R6, 0x00000000)  returns 0x00 (0000ms, 0429ms total)
T1A80 000:964 JLINK_WriteReg(R7, 0x00000000)  returns 0x00 (0000ms, 0429ms total)
T1A80 000:964 JLINK_WriteReg(R8, 0x00000000)  returns 0x00 (0000ms, 0429ms total)
T1A80 000:964 JLINK_WriteReg(R9, 0x20000160)  returns 0x00 (0000ms, 0429ms total)
T1A80 000:964 JLINK_WriteReg(R10, 0x00000000)  returns 0x00 (0000ms, 0429ms total)
T1A80 000:964 JLINK_WriteReg(R11, 0x00000000)  returns 0x00 (0000ms, 0429ms total)
T1A80 000:964 JLINK_WriteReg(R12, 0x00000000)  returns 0x00 (0000ms, 0429ms total)
T1A80 000:964 JLINK_WriteReg(R13, 0x20000800)  returns 0x00 (0000ms, 0429ms total)
T1A80 000:964 JLINK_WriteReg(R14, 0x20000001)  returns 0x00 (0000ms, 0429ms total)
T1A80 000:964 JLINK_WriteReg(R15, 0x200000F4)  returns 0x00 (0000ms, 0429ms total)
T1A80 000:964 JLINK_WriteReg(XPSR, 0x01000000)  returns 0x00 (0000ms, 0429ms total)
T1A80 000:964 JLINK_WriteReg(MSP, 0x20000800)  returns 0x00 (0000ms, 0429ms total)
T1A80 000:964 JLINK_WriteReg(PSP, 0x20000800)  returns 0x00 (0000ms, 0429ms total)
T1A80 000:964 JLINK_WriteReg(CFBP, 0x00000000)  returns 0x00 (0000ms, 0429ms total)
T1A80 000:964 JLINK_SetBPEx(Addr = 0x20000000, Type = 0xFFFFFFF2)  returns 0x0000000E (0000ms, 0429ms total)
T1A80 000:964 JLINK_Go() (0002ms, 0431ms total)
T1A80 000:966 JLINK_IsHalted()  returns FALSE (0001ms, 0432ms total)
T1A80 000:975 JLINK_IsHalted()  returns FALSE (0000ms, 0431ms total)
T1A80 000:978 JLINK_IsHalted()  returns FALSE (0000ms, 0431ms total)
T1A80 000:980 JLINK_IsHalted()  returns FALSE (0000ms, 0431ms total)
T1A80 000:983 JLINK_IsHalted()  returns FALSE (0000ms, 0431ms total)
T1A80 000:987 JLINK_IsHalted()  returns FALSE (0000ms, 0431ms total)
T1A80 000:989 JLINK_IsHalted()  returns FALSE (0000ms, 0431ms total)
T1A80 000:991 JLINK_IsHalted()  returns FALSE (0000ms, 0431ms total)
T1A80 000:993 JLINK_IsHalted()  returns FALSE (0000ms, 0431ms total)
T1A80 000:995 JLINK_IsHalted()  returns FALSE (0000ms, 0431ms total)
T1A80 000:997 JLINK_IsHalted() -- CPU_ReadMem(2 bytes @ 0x20000000)  returns TRUE (0006ms, 0437ms total)
